
T1AB8 000:318 SEGGER J-Link V4.96d Log File (0000ms, 0283ms total)
T1AB8 000:318 DLL Compiled: Jan 29 2015 11:45:37 (0000ms, 0283ms total)
T1AB8 000:318 Logging started @ 2019-07-26 15:12 (0000ms, 0283ms total)
T1AB8 000:318 JLINK_SetWarnOutHandler(...) (0000ms, 0283ms total)
T1AB8 000:318 JLINK_OpenEx(...)
Firmware: J-Link V9 compiled Oct 25 2018 11:46:07
Hardware: V9.40
S/N: 59401716
Feature(s): RDI, GDB, FlashDL, FlashBP, JFlash  returns O.K. (0287ms, 0570ms total)
T1AB8 000:605 JLINK_SetErrorOutHandler(...) (0000ms, 0570ms total)
T1AB8 000:605 JLINK_ExecCommand("ProjectFile = "C:\Users\USER\Desktop\myselfproject\user\JLinkSettings.ini"", ...)  returns 0x00 (0001ms, 0571ms total)
T1AB8 000:606 JLINK_ExecCommand("Device = STM32F103C8", ...)Device "STM32F103C8" selected.  returns 0x00 (0000ms, 0571ms total)
T1AB8 000:606 JLINK_ExecCommand("DisableConnectionTimeout", ...)  returns 0x01 (0000ms, 0571ms total)
T1AB8 000:606 JLINK_GetHardwareVersion()  returns 0x16F30 (0000ms, 0571ms total)
T1AB8 000:606 JLINK_GetDLLVersion()  returns 49604 (0000ms, 0571ms total)
T1AB8 000:606 JLINK_GetFirmwareString(...) (0001ms, 0572ms total)
T1AB8 000:607 JLINK_GetDLLVersion()  returns 49604 (0000ms, 0572ms total)
T1AB8 000:607 JLINK_GetCompileDateTime() (0000ms, 0572ms total)
T1AB8 000:607 JLINK_GetFirmwareString(...) (0000ms, 0572ms total)
T1AB8 000:608 JLINK_GetHardwareVersion()  returns 0x16F30 (0000ms, 0572ms total)
T1AB8 000:609 JLINK_TIF_Select(JLINKARM_TIF_SWD)  returns 0x00 (0004ms, 0576ms total)
T1AB8 000:613 JLINK_SetSpeed(20000) (0001ms, 0577ms total)
T1AB8 000:614 JLINK_GetId() >0x108 TIF>Found SWD-DP with ID 0x1BA01477 >0x0D TIF> >0x28 TIF> >0x0D TIF> >0x28 TIF> >0x0D TIF> >0x21 TIF> >0x0D TIF> >0x28 TIF> >0x0D TIF> >0x28 TIF> >0x0D TIF> >0x28 TIF> >0x0D TIF> >0x0D TIF> >0x21 TIF> >0x0D TIF> >0x21 TIF> >0x0D TIF> >0x28 TIF> >0x0D TIF> >0x0D TIF> >0x21 TIF> >0x0D TIF> >0x21 TIF> >0x108 TIF>Found SWD-DP with ID 0x1BA01477 >0x0D TIF> >0x21 TIF> >0x0D TIF> >0x28 TIF> >0x0D TIF> >0x28 TIF> >0x0D TIF> >0x21 TIF> >0x0D TIF> >0x28 TIF> >0x0D TIF> >0x21 TIF>
 >0x0D TIF> >0x21 TIF> >0x0D TIF> >0x21 TIF> >0x0D TIF> >0x21 TIF> >0x0D TIF> >0x28 TIF> >0x0D TIF> >0x28 TIF> >0x0D TIF> >0x21 TIF> >0x0D TIF> >0x28 TIF> >0x0D TIF> >0x28 TIF> >0x0D TIF> >0x28 TIF> >0x0D TIF> >0x0D TIF> >0x21 TIF> >0x0D TIF> >0x21 TIF> >0x0D TIF> >0x28 TIF> >0x0D TIF> >0x0D TIF> >0x21 TIF> >0x0D TIF> >0x21 TIF>Found Cortex-M3 r1p1, Little endian. -- CPU_WriteMem(4 bytes @ 0xE0002000) -- CPU_ReadMem(4 bytes @ 0xE000EDF0) -- CPU_ReadMem(4 bytes @ 0xE0002000)
FPUnit: 6 code (BP) slots and 2 literal slots -- CPU_ReadMem(4 bytes @ 0xE000EDFC) -- CPU_ReadMem(4 bytes @ 0xE0001000) -- CPU_WriteMem(4 bytes @ 0xE0001000) -- CPU_ReadMem(4 bytes @ 0xE000ED88) -- CPU_WriteMem(4 bytes @ 0xE000ED88) -- CPU_ReadMem(4 bytes @ 0xE000ED88) -- CPU_WriteMem(4 bytes @ 0xE000ED88) -- CPU_ReadMem(4 bytes @ 0xE00FF010)TPIU fitted. -- CPU_ReadMem(4 bytes @ 0xE00FF014) -- CPU_ReadMem(4 bytes @ 0xE00FF018) >0x0D TIF> >0x21 TIF>  returns 0x1BA01477 (0096ms, 0673ms total)
T1AB8 000:710 JLINK_GetDLLVersion()  returns 49604 (0000ms, 0673ms total)
T1AB8 000:710 JLINK_CORE_GetFound()  returns 0x30000FF (0000ms, 0673ms total)
T1AB8 000:710 JLINK_GetDebugInfo(0x100) -- Value=0xE00FF003  returns 0x00 (0000ms, 0673ms total)
T1AB8 000:710 JLINK_ReadMem (0xE00FF000, 0x0020 Bytes, ...) -- CPU is running -- CPU_ReadMem(32 bytes @ 0xE00FF000) - Data: 03 F0 F0 FF 03 20 F0 FF 03 30 F0 FF 03 10 F0 FF ...  returns 0x00 (0001ms, 0674ms total)
T1AB8 000:711 JLINK_ReadMem (0xE000EFF0, 0x0010 Bytes, ...) -- CPU is running -- CPU_ReadMem(16 bytes @ 0xE000EFF0) - Data: 0D 00 00 00 E0 00 00 00 05 00 00 00 B1 00 00 00  returns 0x00 (0001ms, 0675ms total)
T1AB8 000:712 JLINK_ReadMem (0xE000EFD0, 0x0020 Bytes, ...) -- CPU is running -- CPU_ReadMem(32 bytes @ 0xE000EFD0) - Data: 04 00 00 00 00 00 00 00 00 00 00 00 00 00 00 00 ...  returns 0x00 (0001ms, 0676ms total)
T1AB8 000:713 JLINK_ReadMem (0xE0001FF0, 0x0010 Bytes, ...) -- CPU is running -- CPU_ReadMem(16 bytes @ 0xE0001FF0) - Data: 0D 00 00 00 E0 00 00 00 05 00 00 00 B1 00 00 00  returns 0x00 (0001ms, 0677ms total)
T1AB8 000:714 JLINK_ReadMem (0xE0001FD0, 0x0020 Bytes, ...) -- CPU is running -- CPU_ReadMem(32 bytes @ 0xE0001FD0) - Data: 04 00 00 00 00 00 00 00 00 00 00 00 00 00 00 00 ...  returns 0x00 (0001ms, 0678ms total)
T1AB8 000:715 JLINK_ReadMem (0xE0002FF0, 0x0010 Bytes, ...) -- CPU is running -- CPU_ReadMem(16 bytes @ 0xE0002FF0) - Data: 0D 00 00 00 E0 00 00 00 05 00 00 00 B1 00 00 00  returns 0x00 (0001ms, 0679ms total)
T1AB8 000:716 JLINK_ReadMem (0xE0002FD0, 0x0020 Bytes, ...) -- CPU is running -- CPU_ReadMem(32 bytes @ 0xE0002FD0) - Data: 04 00 00 00 00 00 00 00 00 00 00 00 00 00 00 00 ...  returns 0x00 (0001ms, 0680ms total)
T1AB8 000:717 JLINK_ReadMem (0xE0000FF0, 0x0010 Bytes, ...) -- CPU is running -- CPU_ReadMem(16 bytes @ 0xE0000FF0) - Data: 0D 00 00 00 E0 00 00 00 05 00 00 00 B1 00 00 00  returns 0x00 (0001ms, 0681ms total)
T1AB8 000:718 JLINK_ReadMem (0xE0000FD0, 0x0020 Bytes, ...) -- CPU is running -- CPU_ReadMem(32 bytes @ 0xE0000FD0) - Data: 04 00 00 00 00 00 00 00 00 00 00 00 00 00 00 00 ...  returns 0x00 (0001ms, 0682ms total)
T1AB8 000:719 JLINK_ReadMem (0xE0040FF0, 0x0010 Bytes, ...) -- CPU is running -- CPU_ReadMem(16 bytes @ 0xE0040FF0) - Data: 0D 00 00 00 90 00 00 00 05 00 00 00 B1 00 00 00  returns 0x00 (0001ms, 0683ms total)
T1AB8 000:720 JLINK_ReadMem (0xE0040FD0, 0x0020 Bytes, ...) -- CPU is running -- CPU_ReadMem(32 bytes @ 0xE0040FD0) - Data: 04 00 00 00 00 00 00 00 00 00 00 00 00 00 00 00 ...  returns 0x00 (0001ms, 0684ms total)
T1AB8 000:721 JLINK_ReadMemU32(0xE000ED00, 0x0001 Items, ...) -- CPU is running -- CPU_ReadMem(4 bytes @ 0xE000ED00) - Data: 31 C2 1F 41  returns 0x01 (0001ms, 0685ms total)
T1AB8 000:722 JLINK_SetResetType(JLINKARM_RESET_TYPE_NORMAL)  returns JLINKARM_RESET_TYPE_NORMAL (0000ms, 0685ms total)
T1AB8 000:722 JLINK_Reset() -- CPU is running -- CPU_WriteMem(4 bytes @ 0xE000EDF0) -- CPU is running -- CPU_WriteMem(4 bytes @ 0xE000EDFC) >0x35 TIF> -- CPU is running -- CPU_WriteMem(4 bytes @ 0xE000ED0C) -- CPU is running -- CPU_ReadMem(4 bytes @ 0xE000EDF0) -- CPU is running -- CPU_ReadMem(4 bytes @ 0xE000EDF0) -- CPU is running -- CPU_WriteMem(4 bytes @ 0xE000EDF0) -- CPU is running -- CPU_WriteMem(4 bytes @ 0xE000EDFC) -- CPU is running -- CPU_ReadMem(4 bytes @ 0xE000EDF0)
 -- CPU_WriteMem(4 bytes @ 0xE0002000) -- CPU_ReadMem(4 bytes @ 0xE000EDFC) -- CPU_ReadMem(4 bytes @ 0xE0001000) (0025ms, 0710ms total)
T1AB8 000:747 JLINK_ReadReg(R15 (PC))  returns 0x080001CC (0000ms, 0710ms total)
T1AB8 000:747 JLINK_ReadReg(XPSR)  returns 0x01000000 (0000ms, 0710ms total)
T1AB8 000:747 JLINK_Halt()  returns 0x00 (0000ms, 0710ms total)
T1AB8 000:747 JLINK_IsHalted()  returns TRUE (0000ms, 0710ms total)
T1AB8 000:747 JLINK_ReadMemU32(0xE000EDF0, 0x0001 Items, ...) -- CPU_ReadMem(4 bytes @ 0xE000EDF0) - Data: 03 00 03 00  returns 0x01 (0001ms, 0711ms total)
T1AB8 000:748 JLINK_WriteU32(0xE000EDF0, 0xA05F0003) -- CPU_WriteMem(4 bytes @ 0xE000EDF0)  returns 0x00 (0001ms, 0712ms total)
T1AB8 000:749 JLINK_WriteU32(0xE000EDFC, 0x01000000) -- CPU_WriteMem(4 bytes @ 0xE000EDFC)  returns 0x00 (0001ms, 0713ms total)
T1AB8 000:752 JLINK_GetHWStatus(...)  returns 0x00 (0001ms, 0714ms total)
T1AB8 000:753 JLINK_GetNumBPUnits(Type = 0xFFFFFF00)  returns 0x06 (0000ms, 0714ms total)
T1AB8 000:753 JLINK_GetNumBPUnits(Type = 0xF0)  returns 0x2000 (0000ms, 0714ms total)
T1AB8 000:753 JLINK_GetNumWPUnits()  returns 0x04 (0000ms, 0714ms total)
T1AB8 000:754 JLINK_GetSpeed()  returns 0x2EE0 (0000ms, 0714ms total)
T1AB8 000:754 JLINK_ReadMemU32(0xE000E004, 0x0001 Items, ...) -- CPU_ReadMem(4 bytes @ 0xE000E004) - Data: 01 00 00 00  returns 0x01 (0001ms, 0715ms total)
T1AB8 000:755 JLINK_ReadMemU32(0xE000E004, 0x0001 Items, ...) -- CPU_ReadMem(4 bytes @ 0xE000E004) - Data: 01 00 00 00  returns 0x01 (0001ms, 0716ms total)
T1AB8 000:756 JLINK_WriteMem(0xE0001000, 0x001C Bytes, ...) - Data: 01 00 00 00 00 00 00 00 00 00 00 00 00 00 00 00 ... -- CPU_WriteMem(28 bytes @ 0xE0001000)  returns 0x1C (0002ms, 0718ms total)
T1AB8 000:758 JLINK_ReadMem (0xE0001000, 0x001C Bytes, ...) -- CPU_ReadMem(28 bytes @ 0xE0001000) - Data: 01 00 00 40 00 00 00 00 00 00 00 00 00 00 00 00 ...  returns 0x00 (0001ms, 0719ms total)
T1AB8 000:759 JLINK_ReadReg(R15 (PC))  returns 0x080001CC (0000ms, 0719ms total)
T1AB8 000:759 JLINK_ReadReg(XPSR)  returns 0x01000000 (0000ms, 0719ms total)
T1AB8 000:833 JLINK_SetResetType(JLINKARM_RESET_TYPE_NORMAL)  returns JLINKARM_RESET_TYPE_NORMAL (0000ms, 0719ms total)
T1AB8 000:833 JLINK_Reset() -- CPU_WriteMem(4 bytes @ 0xE000EDF0) -- CPU_WriteMem(4 bytes @ 0xE000EDFC) >0x35 TIF> -- CPU_WriteMem(4 bytes @ 0xE000ED0C) -- CPU_ReadMem(4 bytes @ 0xE000EDF0) -- CPU_ReadMem(4 bytes @ 0xE000EDF0) -- CPU_WriteMem(4 bytes @ 0xE000EDF0) -- CPU_WriteMem(4 bytes @ 0xE000EDFC) -- CPU is running -- CPU_ReadMem(4 bytes @ 0xE000EDF0) -- CPU_WriteMem(4 bytes @ 0xE0002000) -- CPU_ReadMem(4 bytes @ 0xE000EDFC) -- CPU_ReadMem(4 bytes @ 0xE0001000) (0025ms, 0744ms total)
T1AB8 000:858 JLINK_ReadReg(R15 (PC))  returns 0x080001CC (0000ms, 0744ms total)
T1AB8 000:858 JLINK_ReadReg(XPSR)  returns 0x01000000 (0000ms, 0744ms total)
T1AB8 001:073 JLINK_ReadMem (0x08000130, 0x003C Bytes, ...) -- CPU_ReadMem(128 bytes @ 0x08000100) -- Updating C cache (128 bytes @ 0x08000100) -- Read from C cache (60 bytes @ 0x08000130) - Data: 00 F0 02 F8 00 F0 3A F8 0A A0 90 E8 00 0C 82 44 ...  returns 0x00 (0002ms, 0746ms total)
T1AB8 001:075 JLINK_ReadMem (0x0800016C, 0x003C Bytes, ...) -- CPU_ReadMem(64 bytes @ 0x08000180) -- Updating C cache (64 bytes @ 0x08000180) -- Read from C cache (60 bytes @ 0x0800016C) - Data: 10 3A 24 BF 78 C8 78 C1 FA D8 52 07 24 BF 30 C8 ...  returns 0x00 (0001ms, 0747ms total)
T1AB8 001:076 JLINK_ReadMem (0x080001A8, 0x003C Bytes, ...) -- CPU_ReadMem(64 bytes @ 0x080001C0) -- Updating C cache (64 bytes @ 0x080001C0) -- Read from C cache (60 bytes @ 0x080001A8) - Data: 10 B5 10 BD 00 F0 33 F8 11 46 FF F7 F7 FF 00 F0 ...  returns 0x00 (0001ms, 0748ms total)
T1AB8 001:845 JLINK_ReadMem (0x00000000, 0x00CC Bytes, ...) -- CPU_ReadMem(4 bytes @ 0x00000004) -- CPU_ReadMem(256 bytes @ 0x08000000) -- Updating C cache (256 bytes @ 0x08000000) -- Read from C cache (204 bytes @ 0x08000000) - Data: 50 07 00 20 CD 01 00 08 67 08 00 08 5F 08 00 08 ...  returns 0x00 (0003ms, 0751ms total)
T1AB8 001:959 JLINK_ReadMem (0x20000000, 0x0004 Bytes, ...) -- CPU_ReadMem(64 bytes @ 0x20000000) -- Updating C cache (64 bytes @ 0x20000000) -- Read from C cache (4 bytes @ 0x20000000) - Data: FE E7 0A E0  returns 0x00 (0001ms, 0752ms total)
T1AB8 001:967 JLINK_ReadMem (0x20000004, 0x0004 Bytes, ...) -- Read from C cache (4 bytes @ 0x20000004) - Data: 0D 78 2D 06  returns 0x00 (0000ms, 0752ms total)
T1CA0 001:989 JLINK_SetBPEx(Addr = 0x08000B84, Type = 0xFFFFFFF2)  returns 0x00000001 (0000ms, 0752ms total)
T1CA0 001:989 JLINK_SetBPEx(Addr = 0x08000BB0, Type = 0xFFFFFFF2)  returns 0x00000002 (0000ms, 0752ms total)
T1CA0 001:989 JLINK_Go() -- CPU_WriteMem(4 bytes @ 0xE0002000) -- CPU_WriteMem(4 bytes @ 0xE0002000) -- CPU_WriteMem(4 bytes @ 0xE0002008) -- CPU_WriteMem(4 bytes @ 0xE000200C) -- CPU_WriteMem(4 bytes @ 0xE0002010) -- CPU_WriteMem(4 bytes @ 0xE0002014) -- CPU_WriteMem(4 bytes @ 0xE0002018) -- CPU_WriteMem(4 bytes @ 0xE000201C) -- CPU_WriteMem(4 bytes @ 0xE0001004) (0006ms, 0758ms total)
T1CA0 002:095 JLINK_IsHalted()  returns TRUE (0003ms, 0761ms total)
T1CA0 002:098 JLINK_Halt()  returns 0x00 (0000ms, 0758ms total)
T1CA0 002:098 JLINK_IsHalted()  returns TRUE (0000ms, 0758ms total)
T1CA0 002:098 JLINK_IsHalted()  returns TRUE (0000ms, 0758ms total)
T1CA0 002:098 JLINK_IsHalted()  returns TRUE (0000ms, 0758ms total)
T1CA0 002:098 JLINK_ReadReg(R15 (PC))  returns 0x08000B84 (0000ms, 0758ms total)
T1CA0 002:098 JLINK_ReadReg(XPSR)  returns 0x21000000 (0000ms, 0758ms total)
T1CA0 002:098 JLINK_ClrBPEx(BPHandle = 0x00000001)  returns 0x00 (0000ms, 0758ms total)
T1CA0 002:098 JLINK_ClrBPEx(BPHandle = 0x00000002)  returns 0x00 (0000ms, 0758ms total)
T1CA0 002:098 JLINK_ReadMemU32(0xE000ED30, 0x0001 Items, ...) -- CPU_ReadMem(4 bytes @ 0xE000ED30) - Data: 02 00 00 00  returns 0x01 (0001ms, 0759ms total)
T1CA0 002:099 JLINK_ReadMemU32(0xE0001028, 0x0001 Items, ...) -- CPU_ReadMem(4 bytes @ 0xE0001028) - Data: 00 00 00 00  returns 0x01 (0001ms, 0760ms total)
T1CA0 002:100 JLINK_ReadMemU32(0xE0001038, 0x0001 Items, ...) -- CPU_ReadMem(4 bytes @ 0xE0001038) - Data: 00 02 00 00  returns 0x01 (0001ms, 0761ms total)
T1CA0 002:101 JLINK_ReadMemU32(0xE0001048, 0x0001 Items, ...) -- CPU_ReadMem(4 bytes @ 0xE0001048) - Data: 00 00 00 00  returns 0x01 (0001ms, 0762ms total)
T1CA0 002:102 JLINK_ReadMemU32(0xE0001058, 0x0001 Items, ...) -- CPU_ReadMem(4 bytes @ 0xE0001058) - Data: 00 00 00 00  returns 0x01 (0001ms, 0763ms total)
T1CA0 002:103 JLINK_ReadReg(R0)  returns 0x20000150 (0000ms, 0763ms total)
T1CA0 002:103 JLINK_ReadReg(R1)  returns 0x20000350 (0000ms, 0763ms total)
T1CA0 002:103 JLINK_ReadReg(R2)  returns 0x20000350 (0000ms, 0763ms total)
T1CA0 002:103 JLINK_ReadReg(R3)  returns 0x20000350 (0000ms, 0763ms total)
T1CA0 002:103 JLINK_ReadReg(R4)  returns 0x00000000 (0000ms, 0763ms total)
T1CA0 002:103 JLINK_ReadReg(R5)  returns 0x200000F0 (0000ms, 0763ms total)
T1CA0 002:103 JLINK_ReadReg(R6)  returns 0x00000000 (0000ms, 0763ms total)
T1CA0 002:103 JLINK_ReadReg(R7)  returns 0x00000000 (0000ms, 0763ms total)
T1CA0 002:103 JLINK_ReadReg(R8)  returns 0x00000000 (0000ms, 0763ms total)
T1CA0 002:103 JLINK_ReadReg(R9)  returns 0x20000160 (0000ms, 0763ms total)
T1CA0 002:103 JLINK_ReadReg(R10)  returns 0x08000F90 (0000ms, 0763ms total)
T1CA0 002:103 JLINK_ReadReg(R11)  returns 0x00000000 (0000ms, 0763ms total)
T1CA0 002:103 JLINK_ReadReg(R12)  returns 0x20000130 (0001ms, 0764ms total)
T1CA0 002:104 JLINK_ReadReg(R13 (SP))  returns 0x20000750 (0000ms, 0764ms total)
T1CA0 002:104 JLINK_ReadReg(R14)  returns 0x080001BB (0000ms, 0764ms total)
T1CA0 002:104 JLINK_ReadReg(R15 (PC))  returns 0x08000B84 (0000ms, 0764ms total)
T1CA0 002:104 JLINK_ReadReg(XPSR)  returns 0x21000000 (0000ms, 0764ms total)
T1CA0 002:104 JLINK_ReadReg(MSP)  returns 0x20000750 (0000ms, 0764ms total)
T1CA0 002:104 JLINK_ReadReg(PSP)  returns 0x20001000 (0000ms, 0764ms total)
T1CA0 002:104 JLINK_ReadReg(CFBP)  returns 0x00000000 (0000ms, 0764ms total)
T1AB8 002:104 JLINK_ReadMem (0x20000000, 0x0004 Bytes, ...) -- CPU_ReadMem(64 bytes @ 0x20000000) -- Updating C cache (64 bytes @ 0x20000000) -- Read from C cache (4 bytes @ 0x20000000) - Data: 00 00 00 00  returns 0x00 (0002ms, 0766ms total)
T1AB8 002:108 JLINK_ReadMem (0x20000004, 0x0004 Bytes, ...) -- Read from C cache (4 bytes @ 0x20000004) - Data: 00 00 00 00  returns 0x00 (0000ms, 0766ms total)
T1AB8 002:109 JLINK_ReadMem (0x08000A8C, 0x003C Bytes, ...) -- CPU_ReadMem(128 bytes @ 0x08000A80) -- Updating C cache (128 bytes @ 0x08000A80) -- Read from C cache (60 bytes @ 0x08000A8C) - Data: 70 B5 02 46 00 24 00 23 00 25 00 20 40 F6 6A 16 ...  returns 0x00 (0001ms, 0767ms total)
T1AB8 002:110 JLINK_ReadMem (0x08000AC8, 0x003C Bytes, ...) -- CPU_ReadMem(64 bytes @ 0x08000B00) -- Updating C cache (64 bytes @ 0x08000B00) -- Read from C cache (60 bytes @ 0x08000AC8) - Data: 0C 12 01 26 06 FA 04 F4 16 88 34 40 13 B1 0C B1 ...  returns 0x00 (0001ms, 0768ms total)
T1AB8 002:111 JLINK_ReadMem (0x08000B04, 0x003C Bytes, ...) -- Read from C cache (60 bytes @ 0x08000B04) - Data: B0 FB F1 F0 09 49 08 70 08 46 00 78 00 EB 40 01 ...  returns 0x00 (0000ms, 0768ms total)
T1AB8 002:111 JLINK_ReadMem (0x08000B40, 0x003C Bytes, ...) -- CPU_ReadMem(64 bytes @ 0x08000B40) -- Updating C cache (64 bytes @ 0x08000B40) -- Read from C cache (60 bytes @ 0x08000B40) - Data: 4F F0 E0 23 5A 61 00 22 9A 61 1A 46 12 69 42 F0 ...  returns 0x00 (0001ms, 0769ms total)
T1AB8 002:112 JLINK_ReadMem (0x08000B7C, 0x003C Bytes, ...) -- CPU_ReadMem(64 bytes @ 0x08000B80) -- Updating C cache (64 bytes @ 0x08000B80) -- Read from C cache (60 bytes @ 0x08000B7C) - Data: 9A 61 70 47 1E 00 00 20 00 24 FF F7 B5 FF FF F7 ...  returns 0x00 (0001ms, 0770ms total)
T1CA0 003:638 JLINK_SetBPEx(Addr = 0x08000BB0, Type = 0xFFFFFFF2)  returns 0x00000003 (0001ms, 0771ms total)
T1CA0 003:639 JLINK_Go() -- CPU_WriteMem(4 bytes @ 0xE0002000) -- CPU_WriteMem(4 bytes @ 0xE0002008) -- CPU_WriteMem(4 bytes @ 0xE000200C) (0004ms, 0775ms total)
T1CA0 003:743 JLINK_IsHalted()  returns TRUE (0002ms, 0777ms total)
T1CA0 003:745 JLINK_Halt()  returns 0x00 (0000ms, 0775ms total)
T1CA0 003:745 JLINK_IsHalted()  returns TRUE (0000ms, 0775ms total)
T1CA0 003:745 JLINK_IsHalted()  returns TRUE (0000ms, 0775ms total)
T1CA0 003:745 JLINK_IsHalted()  returns TRUE (0000ms, 0775ms total)
T1CA0 003:745 JLINK_ReadReg(R15 (PC))  returns 0x08000BB0 (0000ms, 0775ms total)
T1CA0 003:745 JLINK_ReadReg(XPSR)  returns 0x41000000 (0000ms, 0775ms total)
T1CA0 003:745 JLINK_ClrBPEx(BPHandle = 0x00000003)  returns 0x00 (0001ms, 0776ms total)
T1CA0 003:746 JLINK_ReadMemU32(0xE000ED30, 0x0001 Items, ...) -- CPU_ReadMem(4 bytes @ 0xE000ED30) - Data: 02 00 00 00  returns 0x01 (0000ms, 0776ms total)
T1CA0 003:746 JLINK_ReadMemU32(0xE0001028, 0x0001 Items, ...) -- CPU_ReadMem(4 bytes @ 0xE0001028) - Data: 00 00 00 00  returns 0x01 (0001ms, 0777ms total)
T1CA0 003:747 JLINK_ReadMemU32(0xE0001038, 0x0001 Items, ...) -- CPU_ReadMem(4 bytes @ 0xE0001038) - Data: 00 02 00 00  returns 0x01 (0001ms, 0778ms total)
T1CA0 003:748 JLINK_ReadMemU32(0xE0001048, 0x0001 Items, ...) -- CPU_ReadMem(4 bytes @ 0xE0001048) - Data: 00 00 00 00  returns 0x01 (0001ms, 0779ms total)
T1CA0 003:749 JLINK_ReadMemU32(0xE0001058, 0x0001 Items, ...) -- CPU_ReadMem(4 bytes @ 0xE0001058) - Data: 00 00 00 00  returns 0x01 (0001ms, 0780ms total)
T1CA0 003:750 JLINK_ReadReg(R0)  returns 0x42AA0000 (0001ms, 0781ms total)
T1CA0 003:751 JLINK_ReadReg(R1)  returns 0x20000004 (0000ms, 0781ms total)
T1CA0 003:751 JLINK_ReadReg(R2)  returns 0x42AA0000 (0000ms, 0781ms total)
T1CA0 003:751 JLINK_ReadReg(R3)  returns 0x44AA0000 (0000ms, 0781ms total)
T1CA0 003:751 JLINK_ReadReg(R4)  returns 0x00000000 (0000ms, 0781ms total)
T1CA0 003:751 JLINK_ReadReg(R5)  returns 0x200000F0 (0000ms, 0781ms total)
T1CA0 003:751 JLINK_ReadReg(R6)  returns 0x00000000 (0000ms, 0781ms total)
T1CA0 003:751 JLINK_ReadReg(R7)  returns 0x00000000 (0000ms, 0781ms total)
T1CA0 003:751 JLINK_ReadReg(R8)  returns 0x00000000 (0000ms, 0781ms total)
T1CA0 003:751 JLINK_ReadReg(R9)  returns 0x20000160 (0000ms, 0781ms total)
T1CA0 003:751 JLINK_ReadReg(R10)  returns 0x08000F90 (0000ms, 0781ms total)
T1CA0 003:751 JLINK_ReadReg(R11)  returns 0x00000000 (0000ms, 0781ms total)
T1CA0 003:751 JLINK_ReadReg(R12)  returns 0x00000000 (0000ms, 0781ms total)
T1CA0 003:751 JLINK_ReadReg(R13 (SP))  returns 0x20000750 (0000ms, 0781ms total)
T1CA0 003:751 JLINK_ReadReg(R14)  returns 0x080002F3 (0000ms, 0781ms total)
T1CA0 003:751 JLINK_ReadReg(R15 (PC))  returns 0x08000BB0 (0000ms, 0781ms total)
T1CA0 003:751 JLINK_ReadReg(XPSR)  returns 0x41000000 (0000ms, 0781ms total)
T1CA0 003:751 JLINK_ReadReg(MSP)  returns 0x20000750 (0000ms, 0781ms total)
T1CA0 003:751 JLINK_ReadReg(PSP)  returns 0x20001000 (0000ms, 0781ms total)
T1CA0 003:751 JLINK_ReadReg(CFBP)  returns 0x00000000 (0000ms, 0781ms total)
T1AB8 003:752 JLINK_ReadMem (0x20000000, 0x0004 Bytes, ...) -- CPU_ReadMem(64 bytes @ 0x20000000) -- Updating C cache (64 bytes @ 0x20000000) -- Read from C cache (4 bytes @ 0x20000000) - Data: 00 00 80 3D  returns 0x00 (0001ms, 0782ms total)
T1AB8 003:756 JLINK_ReadMem (0x20000004, 0x0004 Bytes, ...) -- Read from C cache (4 bytes @ 0x20000004) - Data: 00 00 AA 42  returns 0x00 (0000ms, 0782ms total)
T1AB8 003:759 JLINK_ReadMem (0x08000BA8, 0x003C Bytes, ...) -- CPU_ReadMem(128 bytes @ 0x08000B80) -- Updating C cache (128 bytes @ 0x08000B80) -- Read from C cache (60 bytes @ 0x08000BA8) - Data: FF F7 66 FB 04 49 08 60 0A 20 FF F7 C1 FF 60 1C ...  returns 0x00 (0003ms, 0785ms total)
T1CA0 008:050 JLINK_Step() -- Read from C cache (2 bytes @ 0x08000BB0) -- CPU_ReadMem(4 bytes @ 0xE0001004) -- Simulated  returns 0x00 (0003ms, 0788ms total)
T1CA0 008:053 JLINK_ReadReg(R15 (PC))  returns 0x08000BB2 (0000ms, 0788ms total)
T1CA0 008:053 JLINK_ReadReg(XPSR)  returns 0x01000000 (0000ms, 0788ms total)
T1CA0 008:053 JLINK_SetBPEx(Addr = 0x08000BB0, Type = 0xFFFFFFF2)  returns 0x00000004 (0000ms, 0788ms total)
T1CA0 008:053 JLINK_Go() -- CPU_WriteMem(4 bytes @ 0xE0002000) -- CPU_WriteMem(4 bytes @ 0xE0001004) (0004ms, 0792ms total)
T1CA0 008:157 JLINK_IsHalted()  returns TRUE (0003ms, 0795ms total)
T1CA0 008:160 JLINK_Halt()  returns 0x00 (0000ms, 0792ms total)
T1CA0 008:160 JLINK_IsHalted()  returns TRUE (0000ms, 0792ms total)
T1CA0 008:160 JLINK_IsHalted()  returns TRUE (0000ms, 0792ms total)
T1CA0 008:160 JLINK_IsHalted()  returns TRUE (0000ms, 0792ms total)
T1CA0 008:160 JLINK_ReadReg(R15 (PC))  returns 0x08000BB0 (0000ms, 0792ms total)
T1CA0 008:160 JLINK_ReadReg(XPSR)  returns 0x01000000 (0000ms, 0792ms total)
T1CA0 008:160 JLINK_ClrBPEx(BPHandle = 0x00000004)  returns 0x00 (0000ms, 0792ms total)
T1CA0 008:160 JLINK_ReadMemU32(0xE000ED30, 0x0001 Items, ...) -- CPU_ReadMem(4 bytes @ 0xE000ED30) - Data: 02 00 00 00  returns 0x01 (0001ms, 0793ms total)
T1CA0 008:161 JLINK_ReadMemU32(0xE0001028, 0x0001 Items, ...) -- CPU_ReadMem(4 bytes @ 0xE0001028) - Data: 00 00 00 00  returns 0x01 (0001ms, 0794ms total)
T1CA0 008:162 JLINK_ReadMemU32(0xE0001038, 0x0001 Items, ...) -- CPU_ReadMem(4 bytes @ 0xE0001038) - Data: 00 02 00 00  returns 0x01 (0001ms, 0795ms total)
T1CA0 008:163 JLINK_ReadMemU32(0xE0001048, 0x0001 Items, ...) -- CPU_ReadMem(4 bytes @ 0xE0001048) - Data: 00 00 00 00  returns 0x01 (0001ms, 0796ms total)
T1CA0 008:164 JLINK_ReadMemU32(0xE0001058, 0x0001 Items, ...) -- CPU_ReadMem(4 bytes @ 0xE0001058) - Data: 00 00 00 00  returns 0x01 (0001ms, 0797ms total)
T1CA0 008:165 JLINK_ReadReg(R0)  returns 0x00000001 (0000ms, 0797ms total)
T1CA0 008:165 JLINK_ReadReg(R1)  returns 0x00000000 (0000ms, 0797ms total)
T1CA0 008:165 JLINK_ReadReg(R2)  returns 0x00000000 (0000ms, 0797ms total)
T1CA0 008:165 JLINK_ReadReg(R3)  returns 0xE000E000 (0000ms, 0797ms total)
T1CA0 008:165 JLINK_ReadReg(R4)  returns 0x00000001 (0000ms, 0797ms total)
T1CA0 008:165 JLINK_ReadReg(R5)  returns 0x200000F0 (0001ms, 0798ms total)
T1CA0 008:166 JLINK_ReadReg(R6)  returns 0x00000000 (0000ms, 0798ms total)
T1CA0 008:166 JLINK_ReadReg(R7)  returns 0x00000000 (0000ms, 0798ms total)
T1CA0 008:166 JLINK_ReadReg(R8)  returns 0x00000000 (0000ms, 0798ms total)
T1CA0 008:166 JLINK_ReadReg(R9)  returns 0x20000160 (0000ms, 0798ms total)
T1CA0 008:166 JLINK_ReadReg(R10)  returns 0x08000F90 (0000ms, 0798ms total)
T1CA0 008:166 JLINK_ReadReg(R11)  returns 0x00000000 (0000ms, 0798ms total)
T1CA0 008:166 JLINK_ReadReg(R12)  returns 0x00000000 (0000ms, 0798ms total)
T1CA0 008:166 JLINK_ReadReg(R13 (SP))  returns 0x20000750 (0000ms, 0798ms total)
T1CA0 008:166 JLINK_ReadReg(R14)  returns 0x08000BB7 (0000ms, 0798ms total)
T1CA0 008:166 JLINK_ReadReg(R15 (PC))  returns 0x08000BB0 (0000ms, 0798ms total)
T1CA0 008:166 JLINK_ReadReg(XPSR)  returns 0x01000000 (0000ms, 0798ms total)
T1CA0 008:166 JLINK_ReadReg(MSP)  returns 0x20000750 (0000ms, 0798ms total)
T1CA0 008:166 JLINK_ReadReg(PSP)  returns 0x20001000 (0000ms, 0798ms total)
T1CA0 008:166 JLINK_ReadReg(CFBP)  returns 0x00000000 (0000ms, 0798ms total)
T1AB8 008:166 JLINK_ReadMem (0x20000000, 0x0004 Bytes, ...) -- CPU_ReadMem(64 bytes @ 0x20000000) -- Updating C cache (64 bytes @ 0x20000000) -- Read from C cache (4 bytes @ 0x20000000) - Data: 00 00 80 3D  returns 0x00 (0002ms, 0800ms total)
T1AB8 008:169 JLINK_ReadMem (0x20000004, 0x0004 Bytes, ...) -- Read from C cache (4 bytes @ 0x20000004) - Data: 00 00 AA 42  returns 0x00 (0000ms, 0800ms total)
T1CA0 008:627 JLINK_Step() -- CPU_ReadMem(64 bytes @ 0x08000B80) -- Updating C cache (64 bytes @ 0x08000B80) -- Read from C cache (2 bytes @ 0x08000BB0) -- CPU_ReadMem(4 bytes @ 0xE0001004) -- Simulated  returns 0x00 (0003ms, 0803ms total)
T1CA0 008:630 JLINK_ReadReg(R15 (PC))  returns 0x08000BB2 (0000ms, 0803ms total)
T1CA0 008:630 JLINK_ReadReg(XPSR)  returns 0x01000000 (0001ms, 0804ms total)
T1CA0 008:631 JLINK_SetBPEx(Addr = 0x08000BB0, Type = 0xFFFFFFF2)  returns 0x00000005 (0000ms, 0804ms total)
T1CA0 008:631 JLINK_Go() -- CPU_WriteMem(4 bytes @ 0xE0002000) -- CPU_WriteMem(4 bytes @ 0xE0001004) (0004ms, 0808ms total)
T1CA0 008:735 JLINK_IsHalted()  returns TRUE (0003ms, 0811ms total)
T1CA0 008:738 JLINK_Halt()  returns 0x00 (0000ms, 0808ms total)
T1CA0 008:738 JLINK_IsHalted()  returns TRUE (0000ms, 0808ms total)
T1CA0 008:738 JLINK_IsHalted()  returns TRUE (0000ms, 0808ms total)
T1CA0 008:738 JLINK_IsHalted()  returns TRUE (0001ms, 0809ms total)
T1CA0 008:739 JLINK_ReadReg(R15 (PC))  returns 0x08000BB0 (0000ms, 0808ms total)
T1CA0 008:739 JLINK_ReadReg(XPSR)  returns 0x01000000 (0000ms, 0808ms total)
T1CA0 008:739 JLINK_ClrBPEx(BPHandle = 0x00000005)  returns 0x00 (0000ms, 0808ms total)
T1CA0 008:739 JLINK_ReadMemU32(0xE000ED30, 0x0001 Items, ...) -- CPU_ReadMem(4 bytes @ 0xE000ED30) - Data: 02 00 00 00  returns 0x01 (0000ms, 0808ms total)
T1CA0 008:739 JLINK_ReadMemU32(0xE0001028, 0x0001 Items, ...) -- CPU_ReadMem(4 bytes @ 0xE0001028) - Data: 00 00 00 00  returns 0x01 (0001ms, 0809ms total)
T1CA0 008:740 JLINK_ReadMemU32(0xE0001038, 0x0001 Items, ...) -- CPU_ReadMem(4 bytes @ 0xE0001038) - Data: 00 02 00 00  returns 0x01 (0001ms, 0810ms total)
T1CA0 008:741 JLINK_ReadMemU32(0xE0001048, 0x0001 Items, ...) -- CPU_ReadMem(4 bytes @ 0xE0001048) - Data: 00 00 00 00  returns 0x01 (0001ms, 0811ms total)
T1CA0 008:742 JLINK_ReadMemU32(0xE0001058, 0x0001 Items, ...) -- CPU_ReadMem(4 bytes @ 0xE0001058) - Data: 00 00 00 00  returns 0x01 (0001ms, 0812ms total)
T1CA0 008:743 JLINK_ReadReg(R0)  returns 0x00000002 (0000ms, 0812ms total)
T1CA0 008:743 JLINK_ReadReg(R1)  returns 0x00000000 (0000ms, 0812ms total)
T1CA0 008:743 JLINK_ReadReg(R2)  returns 0x00000000 (0000ms, 0812ms total)
T1CA0 008:743 JLINK_ReadReg(R3)  returns 0xE000E000 (0000ms, 0812ms total)
T1CA0 008:743 JLINK_ReadReg(R4)  returns 0x00000002 (0000ms, 0812ms total)
T1CA0 008:743 JLINK_ReadReg(R5)  returns 0x200000F0 (0000ms, 0812ms total)
T1CA0 008:743 JLINK_ReadReg(R6)  returns 0x00000000 (0000ms, 0812ms total)
T1CA0 008:743 JLINK_ReadReg(R7)  returns 0x00000000 (0000ms, 0812ms total)
T1CA0 008:743 JLINK_ReadReg(R8)  returns 0x00000000 (0001ms, 0813ms total)
T1CA0 008:744 JLINK_ReadReg(R9)  returns 0x20000160 (0000ms, 0813ms total)
T1CA0 008:744 JLINK_ReadReg(R10)  returns 0x08000F90 (0000ms, 0813ms total)
T1CA0 008:744 JLINK_ReadReg(R11)  returns 0x00000000 (0000ms, 0813ms total)
T1CA0 008:744 JLINK_ReadReg(R12)  returns 0x00000000 (0000ms, 0813ms total)
T1CA0 008:744 JLINK_ReadReg(R13 (SP))  returns 0x20000750 (0000ms, 0813ms total)
T1CA0 008:744 JLINK_ReadReg(R14)  returns 0x08000BB7 (0000ms, 0813ms total)
T1CA0 008:744 JLINK_ReadReg(R15 (PC))  returns 0x08000BB0 (0000ms, 0813ms total)
T1CA0 008:744 JLINK_ReadReg(XPSR)  returns 0x01000000 (0000ms, 0813ms total)
T1CA0 008:744 JLINK_ReadReg(MSP)  returns 0x20000750 (0000ms, 0813ms total)
T1CA0 008:744 JLINK_ReadReg(PSP)  returns 0x20001000 (0000ms, 0813ms total)
T1CA0 008:744 JLINK_ReadReg(CFBP)  returns 0x00000000 (0000ms, 0813ms total)
T1AB8 008:744 JLINK_ReadMem (0x20000000, 0x0004 Bytes, ...) -- CPU_ReadMem(64 bytes @ 0x20000000) -- Updating C cache (64 bytes @ 0x20000000) -- Read from C cache (4 bytes @ 0x20000000) - Data: 00 00 80 3D  returns 0x00 (0002ms, 0815ms total)
T1AB8 008:746 JLINK_ReadMem (0x20000004, 0x0004 Bytes, ...) -- Read from C cache (4 bytes @ 0x20000004) - Data: 00 00 AA 42  returns 0x00 (0000ms, 0815ms total)
T1CA0 009:466 JLINK_Step() -- CPU_ReadMem(64 bytes @ 0x08000B80) -- Updating C cache (64 bytes @ 0x08000B80) -- Read from C cache (2 bytes @ 0x08000BB0) -- CPU_ReadMem(4 bytes @ 0xE0001004) -- Simulated  returns 0x00 (0004ms, 0819ms total)
T1CA0 009:470 JLINK_ReadReg(R15 (PC))  returns 0x08000BB2 (0000ms, 0819ms total)
T1CA0 009:470 JLINK_ReadReg(XPSR)  returns 0x01000000 (0000ms, 0819ms total)
T1CA0 009:470 JLINK_SetBPEx(Addr = 0x08000BB0, Type = 0xFFFFFFF2)  returns 0x00000006 (0000ms, 0819ms total)
T1CA0 009:470 JLINK_Go() -- CPU_WriteMem(4 bytes @ 0xE0002000) -- CPU_WriteMem(4 bytes @ 0xE0001004) (0004ms, 0823ms total)
T1CA0 009:574 JLINK_IsHalted()  returns TRUE (0003ms, 0826ms total)
T1CA0 009:577 JLINK_Halt()  returns 0x00 (0000ms, 0823ms total)
T1CA0 009:577 JLINK_IsHalted()  returns TRUE (0000ms, 0823ms total)
T1CA0 009:577 JLINK_IsHalted()  returns TRUE (0000ms, 0823ms total)
T1CA0 009:577 JLINK_IsHalted()  returns TRUE (0001ms, 0824ms total)
T1CA0 009:578 JLINK_ReadReg(R15 (PC))  returns 0x08000BB0 (0000ms, 0823ms total)
T1CA0 009:578 JLINK_ReadReg(XPSR)  returns 0x01000000 (0000ms, 0823ms total)
T1CA0 009:578 JLINK_ClrBPEx(BPHandle = 0x00000006)  returns 0x00 (0000ms, 0823ms total)
T1CA0 009:578 JLINK_ReadMemU32(0xE000ED30, 0x0001 Items, ...) -- CPU_ReadMem(4 bytes @ 0xE000ED30) - Data: 02 00 00 00  returns 0x01 (0001ms, 0824ms total)
T1CA0 009:579 JLINK_ReadMemU32(0xE0001028, 0x0001 Items, ...) -- CPU_ReadMem(4 bytes @ 0xE0001028) - Data: 00 00 00 00  returns 0x01 (0001ms, 0825ms total)
T1CA0 009:580 JLINK_ReadMemU32(0xE0001038, 0x0001 Items, ...) -- CPU_ReadMem(4 bytes @ 0xE0001038) - Data: 00 02 00 00  returns 0x01 (0001ms, 0826ms total)
T1CA0 009:581 JLINK_ReadMemU32(0xE0001048, 0x0001 Items, ...) -- CPU_ReadMem(4 bytes @ 0xE0001048) - Data: 00 00 00 00  returns 0x01 (0001ms, 0827ms total)
T1CA0 009:582 JLINK_ReadMemU32(0xE0001058, 0x0001 Items, ...) -- CPU_ReadMem(4 bytes @ 0xE0001058) - Data: 00 00 00 00  returns 0x01 (0001ms, 0828ms total)
T1CA0 009:583 JLINK_ReadReg(R0)  returns 0x00000003 (0000ms, 0828ms total)
T1CA0 009:583 JLINK_ReadReg(R1)  returns 0x00000000 (0000ms, 0828ms total)
T1CA0 009:583 JLINK_ReadReg(R2)  returns 0x00000000 (0000ms, 0828ms total)
T1CA0 009:583 JLINK_ReadReg(R3)  returns 0xE000E000 (0000ms, 0828ms total)
T1CA0 009:583 JLINK_ReadReg(R4)  returns 0x00000003 (0000ms, 0828ms total)
T1CA0 009:583 JLINK_ReadReg(R5)  returns 0x200000F0 (0000ms, 0828ms total)
T1CA0 009:583 JLINK_ReadReg(R6)  returns 0x00000000 (0001ms, 0829ms total)
T1CA0 009:584 JLINK_ReadReg(R7)  returns 0x00000000 (0000ms, 0829ms total)
T1CA0 009:584 JLINK_ReadReg(R8)  returns 0x00000000 (0000ms, 0829ms total)
T1CA0 009:584 JLINK_ReadReg(R9)  returns 0x20000160 (0000ms, 0829ms total)
T1CA0 009:584 JLINK_ReadReg(R10)  returns 0x08000F90 (0000ms, 0829ms total)
T1CA0 009:584 JLINK_ReadReg(R11)  returns 0x00000000 (0000ms, 0829ms total)
T1CA0 009:584 JLINK_ReadReg(R12)  returns 0x00000000 (0000ms, 0829ms total)
T1CA0 009:584 JLINK_ReadReg(R13 (SP))  returns 0x20000750 (0000ms, 0829ms total)
T1CA0 009:584 JLINK_ReadReg(R14)  returns 0x08000BB7 (0000ms, 0829ms total)
T1CA0 009:584 JLINK_ReadReg(R15 (PC))  returns 0x08000BB0 (0000ms, 0829ms total)
T1CA0 009:584 JLINK_ReadReg(XPSR)  returns 0x01000000 (0000ms, 0829ms total)
T1CA0 009:584 JLINK_ReadReg(MSP)  returns 0x20000750 (0000ms, 0829ms total)
T1CA0 009:584 JLINK_ReadReg(PSP)  returns 0x20001000 (0000ms, 0829ms total)
T1CA0 009:584 JLINK_ReadReg(CFBP)  returns 0x00000000 (0000ms, 0829ms total)
T1AB8 009:584 JLINK_ReadMem (0x20000000, 0x0004 Bytes, ...) -- CPU_ReadMem(64 bytes @ 0x20000000) -- Updating C cache (64 bytes @ 0x20000000) -- Read from C cache (4 bytes @ 0x20000000) - Data: 00 00 80 3D  returns 0x00 (0002ms, 0831ms total)
T1AB8 009:586 JLINK_ReadMem (0x20000004, 0x0004 Bytes, ...) -- Read from C cache (4 bytes @ 0x20000004) - Data: 00 00 AA 42  returns 0x00 (0000ms, 0831ms total)
T1CA0 010:215 JLINK_Step() -- CPU_ReadMem(64 bytes @ 0x08000B80) -- Updating C cache (64 bytes @ 0x08000B80) -- Read from C cache (2 bytes @ 0x08000BB0) -- CPU_ReadMem(4 bytes @ 0xE0001004) -- Simulated  returns 0x00 (0003ms, 0834ms total)
T1CA0 010:218 JLINK_ReadReg(R15 (PC))  returns 0x08000BB2 (0000ms, 0834ms total)
T1CA0 010:219 JLINK_ReadReg(XPSR)  returns 0x01000000 (0000ms, 0835ms total)
T1CA0 010:219 JLINK_SetBPEx(Addr = 0x08000BB0, Type = 0xFFFFFFF2)  returns 0x00000007 (0000ms, 0835ms total)
T1CA0 010:219 JLINK_Go() -- CPU_WriteMem(4 bytes @ 0xE0002000) -- CPU_WriteMem(4 bytes @ 0xE0001004) (0003ms, 0838ms total)
T1CA0 010:322 JLINK_IsHalted()  returns TRUE (0003ms, 0841ms total)
T1CA0 010:325 JLINK_Halt()  returns 0x00 (0000ms, 0838ms total)
T1CA0 010:325 JLINK_IsHalted()  returns TRUE (0000ms, 0838ms total)
T1CA0 010:325 JLINK_IsHalted()  returns TRUE (0000ms, 0838ms total)
T1CA0 010:325 JLINK_IsHalted()  returns TRUE (0000ms, 0838ms total)
T1CA0 010:325 JLINK_ReadReg(R15 (PC))  returns 0x08000BB0 (0000ms, 0838ms total)
T1CA0 010:325 JLINK_ReadReg(XPSR)  returns 0x01000000 (0000ms, 0838ms total)
T1CA0 010:325 JLINK_ClrBPEx(BPHandle = 0x00000007)  returns 0x00 (0000ms, 0838ms total)
T1CA0 010:325 JLINK_ReadMemU32(0xE000ED30, 0x0001 Items, ...) -- CPU_ReadMem(4 bytes @ 0xE000ED30) - Data: 02 00 00 00  returns 0x01 (0001ms, 0839ms total)
T1CA0 010:326 JLINK_ReadMemU32(0xE0001028, 0x0001 Items, ...) -- CPU_ReadMem(4 bytes @ 0xE0001028) - Data: 00 00 00 00  returns 0x01 (0001ms, 0840ms total)
T1CA0 010:327 JLINK_ReadMemU32(0xE0001038, 0x0001 Items, ...) -- CPU_ReadMem(4 bytes @ 0xE0001038) - Data: 00 02 00 00  returns 0x01 (0001ms, 0841ms total)
T1CA0 010:328 JLINK_ReadMemU32(0xE0001048, 0x0001 Items, ...) -- CPU_ReadMem(4 bytes @ 0xE0001048) - Data: 00 00 00 00  returns 0x01 (0001ms, 0842ms total)
T1CA0 010:329 JLINK_ReadMemU32(0xE0001058, 0x0001 Items, ...) -- CPU_ReadMem(4 bytes @ 0xE0001058) - Data: 00 00 00 00  returns 0x01 (0001ms, 0843ms total)
T1CA0 010:330 JLINK_ReadReg(R0)  returns 0x00000004 (0000ms, 0843ms total)
T1CA0 010:330 JLINK_ReadReg(R1)  returns 0x00000000 (0000ms, 0843ms total)
T1CA0 010:330 JLINK_ReadReg(R2)  returns 0x00000000 (0000ms, 0843ms total)
T1CA0 010:330 JLINK_ReadReg(R3)  returns 0xE000E000 (0000ms, 0843ms total)
T1CA0 010:330 JLINK_ReadReg(R4)  returns 0x00000004 (0000ms, 0843ms total)
T1CA0 010:330 JLINK_ReadReg(R5)  returns 0x200000F0 (0000ms, 0843ms total)
T1CA0 010:330 JLINK_ReadReg(R6)  returns 0x00000000 (0000ms, 0843ms total)
T1CA0 010:330 JLINK_ReadReg(R7)  returns 0x00000000 (0000ms, 0843ms total)
T1CA0 010:330 JLINK_ReadReg(R8)  returns 0x00000000 (0000ms, 0843ms total)
T1CA0 010:330 JLINK_ReadReg(R9)  returns 0x20000160 (0000ms, 0843ms total)
T1CA0 010:330 JLINK_ReadReg(R10)  returns 0x08000F90 (0000ms, 0843ms total)
T1CA0 010:330 JLINK_ReadReg(R11)  returns 0x00000000 (0000ms, 0843ms total)
T1CA0 010:330 JLINK_ReadReg(R12)  returns 0x00000000 (0001ms, 0844ms total)
T1CA0 010:331 JLINK_ReadReg(R13 (SP))  returns 0x20000750 (0000ms, 0844ms total)
T1CA0 010:331 JLINK_ReadReg(R14)  returns 0x08000BB7 (0000ms, 0844ms total)
T1CA0 010:331 JLINK_ReadReg(R15 (PC))  returns 0x08000BB0 (0000ms, 0844ms total)
T1CA0 010:331 JLINK_ReadReg(XPSR)  returns 0x01000000 (0000ms, 0844ms total)
T1CA0 010:331 JLINK_ReadReg(MSP)  returns 0x20000750 (0000ms, 0844ms total)
T1CA0 010:331 JLINK_ReadReg(PSP)  returns 0x20001000 (0000ms, 0844ms total)
T1CA0 010:331 JLINK_ReadReg(CFBP)  returns 0x00000000 (0000ms, 0844ms total)
T1AB8 010:331 JLINK_ReadMem (0x20000000, 0x0004 Bytes, ...) -- CPU_ReadMem(64 bytes @ 0x20000000) -- Updating C cache (64 bytes @ 0x20000000) -- Read from C cache (4 bytes @ 0x20000000) - Data: 00 00 80 3D  returns 0x00 (0001ms, 0845ms total)
T1AB8 010:333 JLINK_ReadMem (0x20000004, 0x0004 Bytes, ...) -- Read from C cache (4 bytes @ 0x20000004) - Data: 00 00 AA 42  returns 0x00 (0000ms, 0845ms total)
T1CA0 010:889 JLINK_Step() -- CPU_ReadMem(64 bytes @ 0x08000B80) -- Updating C cache (64 bytes @ 0x08000B80) -- Read from C cache (2 bytes @ 0x08000BB0) -- CPU_ReadMem(4 bytes @ 0xE0001004) -- Simulated  returns 0x00 (0005ms, 0850ms total)
T1CA0 010:894 JLINK_ReadReg(R15 (PC))  returns 0x08000BB2 (0000ms, 0850ms total)
T1CA0 010:894 JLINK_ReadReg(XPSR)  returns 0x01000000 (0000ms, 0850ms total)
T1CA0 010:894 JLINK_SetBPEx(Addr = 0x08000BB0, Type = 0xFFFFFFF2)  returns 0x00000008 (0000ms, 0850ms total)
T1CA0 010:894 JLINK_Go() -- CPU_WriteMem(4 bytes @ 0xE0002000) -- CPU_WriteMem(4 bytes @ 0xE0001004) (0004ms, 0854ms total)
T1CA0 010:998 JLINK_IsHalted()  returns TRUE (0003ms, 0857ms total)
T1CA0 011:001 JLINK_Halt()  returns 0x00 (0000ms, 0854ms total)
T1CA0 011:001 JLINK_IsHalted()  returns TRUE (0000ms, 0854ms total)
T1CA0 011:001 JLINK_IsHalted()  returns TRUE (0000ms, 0854ms total)
T1CA0 011:001 JLINK_IsHalted()  returns TRUE (0000ms, 0854ms total)
T1CA0 011:001 JLINK_ReadReg(R15 (PC))  returns 0x08000BB0 (0000ms, 0854ms total)
T1CA0 011:001 JLINK_ReadReg(XPSR)  returns 0x01000000 (0000ms, 0854ms total)
T1CA0 011:001 JLINK_ClrBPEx(BPHandle = 0x00000008)  returns 0x00 (0000ms, 0854ms total)
T1CA0 011:001 JLINK_ReadMemU32(0xE000ED30, 0x0001 Items, ...) -- CPU_ReadMem(4 bytes @ 0xE000ED30) - Data: 02 00 00 00  returns 0x01 (0001ms, 0855ms total)
T1CA0 011:002 JLINK_ReadMemU32(0xE0001028, 0x0001 Items, ...) -- CPU_ReadMem(4 bytes @ 0xE0001028) - Data: 00 00 00 00  returns 0x01 (0001ms, 0856ms total)
T1CA0 011:003 JLINK_ReadMemU32(0xE0001038, 0x0001 Items, ...) -- CPU_ReadMem(4 bytes @ 0xE0001038) - Data: 00 02 00 00  returns 0x01 (0001ms, 0857ms total)
T1CA0 011:004 JLINK_ReadMemU32(0xE0001048, 0x0001 Items, ...) -- CPU_ReadMem(4 bytes @ 0xE0001048) - Data: 00 00 00 00  returns 0x01 (0001ms, 0858ms total)
T1CA0 011:005 JLINK_ReadMemU32(0xE0001058, 0x0001 Items, ...) -- CPU_ReadMem(4 bytes @ 0xE0001058) - Data: 00 00 00 00  returns 0x01 (0001ms, 0859ms total)
T1CA0 011:006 JLINK_ReadReg(R0)  returns 0x00000005 (0001ms, 0860ms total)
T1CA0 011:007 JLINK_ReadReg(R1)  returns 0x00000000 (0000ms, 0860ms total)
T1CA0 011:007 JLINK_ReadReg(R2)  returns 0x00000000 (0000ms, 0860ms total)
T1CA0 011:007 JLINK_ReadReg(R3)  returns 0xE000E000 (0000ms, 0860ms total)
T1CA0 011:007 JLINK_ReadReg(R4)  returns 0x00000005 (0000ms, 0860ms total)
T1CA0 011:007 JLINK_ReadReg(R5)  returns 0x200000F0 (0000ms, 0860ms total)
T1CA0 011:007 JLINK_ReadReg(R6)  returns 0x00000000 (0000ms, 0860ms total)
T1CA0 011:007 JLINK_ReadReg(R7)  returns 0x00000000 (0000ms, 0860ms total)
T1CA0 011:007 JLINK_ReadReg(R8)  returns 0x00000000 (0000ms, 0860ms total)
T1CA0 011:007 JLINK_ReadReg(R9)  returns 0x20000160 (0000ms, 0860ms total)
T1CA0 011:007 JLINK_ReadReg(R10)  returns 0x08000F90 (0000ms, 0860ms total)
T1CA0 011:007 JLINK_ReadReg(R11)  returns 0x00000000 (0000ms, 0860ms total)
T1CA0 011:007 JLINK_ReadReg(R12)  returns 0x00000000 (0000ms, 0860ms total)
T1CA0 011:007 JLINK_ReadReg(R13 (SP))  returns 0x20000750 (0000ms, 0860ms total)
T1CA0 011:007 JLINK_ReadReg(R14)  returns 0x08000BB7 (0000ms, 0860ms total)
T1CA0 011:007 JLINK_ReadReg(R15 (PC))  returns 0x08000BB0 (0000ms, 0860ms total)
T1CA0 011:007 JLINK_ReadReg(XPSR)  returns 0x01000000 (0000ms, 0860ms total)
T1CA0 011:007 JLINK_ReadReg(MSP)  returns 0x20000750 (0000ms, 0860ms total)
T1CA0 011:007 JLINK_ReadReg(PSP)  returns 0x20001000 (0000ms, 0860ms total)
T1CA0 011:007 JLINK_ReadReg(CFBP)  returns 0x00000000 (0000ms, 0860ms total)
T1AB8 011:007 JLINK_ReadMem (0x20000000, 0x0004 Bytes, ...) -- CPU_ReadMem(64 bytes @ 0x20000000) -- Updating C cache (64 bytes @ 0x20000000) -- Read from C cache (4 bytes @ 0x20000000) - Data: 00 00 80 3D  returns 0x00 (0002ms, 0862ms total)
T1AB8 011:009 JLINK_ReadMem (0x20000004, 0x0004 Bytes, ...) -- Read from C cache (4 bytes @ 0x20000004) - Data: 00 00 AA 42  returns 0x00 (0000ms, 0862ms total)
T1CA0 011:571 JLINK_Step() -- CPU_ReadMem(64 bytes @ 0x08000B80) -- Updating C cache (64 bytes @ 0x08000B80) -- Read from C cache (2 bytes @ 0x08000BB0) -- CPU_ReadMem(4 bytes @ 0xE0001004) -- Simulated  returns 0x00 (0003ms, 0865ms total)
T1CA0 011:574 JLINK_ReadReg(R15 (PC))  returns 0x08000BB2 (0000ms, 0865ms total)
T1CA0 011:574 JLINK_ReadReg(XPSR)  returns 0x01000000 (0000ms, 0865ms total)
T1CA0 011:574 JLINK_SetBPEx(Addr = 0x08000BB0, Type = 0xFFFFFFF2)  returns 0x00000009 (0000ms, 0865ms total)
T1CA0 011:574 JLINK_Go() -- CPU_WriteMem(4 bytes @ 0xE0002000) -- CPU_WriteMem(4 bytes @ 0xE0001004) (0004ms, 0869ms total)
T1CA0 011:678 JLINK_IsHalted()  returns TRUE (0003ms, 0872ms total)
T1CA0 011:681 JLINK_Halt()  returns 0x00 (0000ms, 0869ms total)
T1CA0 011:681 JLINK_IsHalted()  returns TRUE (0000ms, 0869ms total)
T1CA0 011:681 JLINK_IsHalted()  returns TRUE (0001ms, 0870ms total)
T1CA0 011:682 JLINK_IsHalted()  returns TRUE (0000ms, 0869ms total)
T1CA0 011:682 JLINK_ReadReg(R15 (PC))  returns 0x08000BB0 (0000ms, 0869ms total)
T1CA0 011:682 JLINK_ReadReg(XPSR)  returns 0x01000000 (0000ms, 0869ms total)
T1CA0 011:682 JLINK_ClrBPEx(BPHandle = 0x00000009)  returns 0x00 (0000ms, 0869ms total)
T1CA0 011:682 JLINK_ReadMemU32(0xE000ED30, 0x0001 Items, ...) -- CPU_ReadMem(4 bytes @ 0xE000ED30) - Data: 02 00 00 00  returns 0x01 (0002ms, 0871ms total)
T1CA0 011:684 JLINK_ReadMemU32(0xE0001028, 0x0001 Items, ...) -- CPU_ReadMem(4 bytes @ 0xE0001028) - Data: 00 00 00 00  returns 0x01 (0002ms, 0873ms total)
T1CA0 011:686 JLINK_ReadMemU32(0xE0001038, 0x0001 Items, ...) -- CPU_ReadMem(4 bytes @ 0xE0001038) - Data: 00 02 00 00  returns 0x01 (0002ms, 0875ms total)
T1CA0 011:688 JLINK_ReadMemU32(0xE0001048, 0x0001 Items, ...) -- CPU_ReadMem(4 bytes @ 0xE0001048) - Data: 00 00 00 00  returns 0x01 (0001ms, 0876ms total)
T1CA0 011:689 JLINK_ReadMemU32(0xE0001058, 0x0001 Items, ...) -- CPU_ReadMem(4 bytes @ 0xE0001058) - Data: 00 00 00 00  returns 0x01 (0001ms, 0877ms total)
T1CA0 011:690 JLINK_ReadReg(R0)  returns 0x00000006 (0000ms, 0877ms total)
T1CA0 011:690 JLINK_ReadReg(R1)  returns 0x00000000 (0000ms, 0877ms total)
T1CA0 011:690 JLINK_ReadReg(R2)  returns 0x00000000 (0000ms, 0877ms total)
T1CA0 011:690 JLINK_ReadReg(R3)  returns 0xE000E000 (0000ms, 0877ms total)
T1CA0 011:690 JLINK_ReadReg(R4)  returns 0x00000006 (0000ms, 0877ms total)
T1CA0 011:690 JLINK_ReadReg(R5)  returns 0x200000F0 (0000ms, 0877ms total)
T1CA0 011:690 JLINK_ReadReg(R6)  returns 0x00000000 (0000ms, 0877ms total)
T1CA0 011:690 JLINK_ReadReg(R7)  returns 0x00000000 (0000ms, 0877ms total)
T1CA0 011:690 JLINK_ReadReg(R8)  returns 0x00000000 (0000ms, 0877ms total)
T1CA0 011:690 JLINK_ReadReg(R9)  returns 0x20000160 (0000ms, 0877ms total)
T1CA0 011:690 JLINK_ReadReg(R10)  returns 0x08000F90 (0000ms, 0877ms total)
T1CA0 011:690 JLINK_ReadReg(R11)  returns 0x00000000 (0000ms, 0877ms total)
T1CA0 011:690 JLINK_ReadReg(R12)  returns 0x00000000 (0000ms, 0877ms total)
T1CA0 011:690 JLINK_ReadReg(R13 (SP))  returns 0x20000750 (0001ms, 0878ms total)
T1CA0 011:691 JLINK_ReadReg(R14)  returns 0x08000BB7 (0000ms, 0878ms total)
T1CA0 011:691 JLINK_ReadReg(R15 (PC))  returns 0x08000BB0 (0000ms, 0878ms total)
T1CA0 011:691 JLINK_ReadReg(XPSR)  returns 0x01000000 (0000ms, 0878ms total)
T1CA0 011:691 JLINK_ReadReg(MSP)  returns 0x20000750 (0000ms, 0878ms total)
T1CA0 011:691 JLINK_ReadReg(PSP)  returns 0x20001000 (0000ms, 0878ms total)
T1CA0 011:691 JLINK_ReadReg(CFBP)  returns 0x00000000 (0000ms, 0878ms total)
T1AB8 011:693 JLINK_ReadMem (0x20000000, 0x0004 Bytes, ...) -- CPU_ReadMem(64 bytes @ 0x20000000) -- Updating C cache (64 bytes @ 0x20000000) -- Read from C cache (4 bytes @ 0x20000000) - Data: 00 00 80 3D  returns 0x00 (0002ms, 0880ms total)
T1AB8 011:695 JLINK_ReadMem (0x20000004, 0x0004 Bytes, ...) -- Read from C cache (4 bytes @ 0x20000004) - Data: 00 00 AA 42  returns 0x00 (0000ms, 0880ms total)
T1CA0 012:162 JLINK_Step() -- CPU_ReadMem(64 bytes @ 0x08000B80) -- Updating C cache (64 bytes @ 0x08000B80) -- Read from C cache (2 bytes @ 0x08000BB0) -- CPU_ReadMem(4 bytes @ 0xE0001004) -- Simulated  returns 0x00 (0003ms, 0883ms total)
T1CA0 012:165 JLINK_ReadReg(R15 (PC))  returns 0x08000BB2 (0000ms, 0883ms total)
T1CA0 012:165 JLINK_ReadReg(XPSR)  returns 0x01000000 (0000ms, 0883ms total)
T1CA0 012:165 JLINK_SetBPEx(Addr = 0x08000BB0, Type = 0xFFFFFFF2)  returns 0x0000000A (0000ms, 0883ms total)
T1CA0 012:165 JLINK_Go() -- CPU_WriteMem(4 bytes @ 0xE0002000) -- CPU_WriteMem(4 bytes @ 0xE0001004) (0005ms, 0888ms total)
T1CA0 012:270 JLINK_IsHalted()  returns TRUE (0003ms, 0891ms total)
T1CA0 012:273 JLINK_Halt()  returns 0x00 (0000ms, 0888ms total)
T1CA0 012:273 JLINK_IsHalted()  returns TRUE (0000ms, 0888ms total)
T1CA0 012:273 JLINK_IsHalted()  returns TRUE (0000ms, 0888ms total)
T1CA0 012:273 JLINK_IsHalted()  returns TRUE (0000ms, 0888ms total)
T1CA0 012:273 JLINK_ReadReg(R15 (PC))  returns 0x08000BB0 (0000ms, 0888ms total)
T1CA0 012:273 JLINK_ReadReg(XPSR)  returns 0x01000000 (0000ms, 0888ms total)
T1CA0 012:273 JLINK_ClrBPEx(BPHandle = 0x0000000A)  returns 0x00 (0000ms, 0888ms total)
T1CA0 012:273 JLINK_ReadMemU32(0xE000ED30, 0x0001 Items, ...) -- CPU_ReadMem(4 bytes @ 0xE000ED30) - Data: 02 00 00 00  returns 0x01 (0001ms, 0889ms total)
T1CA0 012:274 JLINK_ReadMemU32(0xE0001028, 0x0001 Items, ...) -- CPU_ReadMem(4 bytes @ 0xE0001028) - Data: 00 00 00 00  returns 0x01 (0001ms, 0890ms total)
T1CA0 012:275 JLINK_ReadMemU32(0xE0001038, 0x0001 Items, ...) -- CPU_ReadMem(4 bytes @ 0xE0001038) - Data: 00 02 00 00  returns 0x01 (0001ms, 0891ms total)
T1CA0 012:276 JLINK_ReadMemU32(0xE0001048, 0x0001 Items, ...) -- CPU_ReadMem(4 bytes @ 0xE0001048) - Data: 00 00 00 00  returns 0x01 (0001ms, 0892ms total)
T1CA0 012:277 JLINK_ReadMemU32(0xE0001058, 0x0001 Items, ...) -- CPU_ReadMem(4 bytes @ 0xE0001058) - Data: 00 00 00 00  returns 0x01 (0001ms, 0893ms total)
T1CA0 012:278 JLINK_ReadReg(R0)  returns 0x00000007 (0000ms, 0893ms total)
T1CA0 012:278 JLINK_ReadReg(R1)  returns 0x00000000 (0000ms, 0893ms total)
T1CA0 012:278 JLINK_ReadReg(R2)  returns 0x00000000 (0000ms, 0893ms total)
T1CA0 012:278 JLINK_ReadReg(R3)  returns 0xE000E000 (0000ms, 0893ms total)
T1CA0 012:278 JLINK_ReadReg(R4)  returns 0x00000007 (0001ms, 0894ms total)
T1CA0 012:279 JLINK_ReadReg(R5)  returns 0x200000F0 (0000ms, 0894ms total)
T1CA0 012:279 JLINK_ReadReg(R6)  returns 0x00000000 (0000ms, 0894ms total)
T1CA0 012:279 JLINK_ReadReg(R7)  returns 0x00000000 (0000ms, 0894ms total)
T1CA0 012:279 JLINK_ReadReg(R8)  returns 0x00000000 (0002ms, 0896ms total)
T1CA0 012:281 JLINK_ReadReg(R9)  returns 0x20000160 (0000ms, 0896ms total)
T1CA0 012:281 JLINK_ReadReg(R10)  returns 0x08000F90 (0000ms, 0896ms total)
T1CA0 012:281 JLINK_ReadReg(R11)  returns 0x00000000 (0000ms, 0896ms total)
T1CA0 012:281 JLINK_ReadReg(R12)  returns 0x00000000 (0000ms, 0896ms total)
T1CA0 012:281 JLINK_ReadReg(R13 (SP))  returns 0x20000750 (0000ms, 0896ms total)
T1CA0 012:281 JLINK_ReadReg(R14)  returns 0x08000BB7 (0000ms, 0896ms total)
T1CA0 012:281 JLINK_ReadReg(R15 (PC))  returns 0x08000BB0 (0000ms, 0896ms total)
T1CA0 012:281 JLINK_ReadReg(XPSR)  returns 0x01000000 (0000ms, 0896ms total)
T1CA0 012:281 JLINK_ReadReg(MSP)  returns 0x20000750 (0000ms, 0896ms total)
T1CA0 012:281 JLINK_ReadReg(PSP)  returns 0x20001000 (0000ms, 0896ms total)
T1CA0 012:281 JLINK_ReadReg(CFBP)  returns 0x00000000 (0000ms, 0896ms total)
T1AB8 012:282 JLINK_ReadMem (0x20000000, 0x0004 Bytes, ...) -- CPU_ReadMem(64 bytes @ 0x20000000) -- Updating C cache (64 bytes @ 0x20000000) -- Read from C cache (4 bytes @ 0x20000000) - Data: 00 00 80 3D  returns 0x00 (0001ms, 0897ms total)
T1AB8 012:283 JLINK_ReadMem (0x20000004, 0x0004 Bytes, ...) -- Read from C cache (4 bytes @ 0x20000004) - Data: 00 00 AA 42  returns 0x00 (0000ms, 0897ms total)
T1CA0 013:910 JLINK_Go() -- CPU_WriteMem(4 bytes @ 0xE0002008) (0004ms, 0901ms total)
T1CA0 014:014 JLINK_IsHalted()  returns FALSE (0001ms, 0902ms total)
T1CA0 014:115 JLINK_IsHalted()  returns FALSE (0001ms, 0902ms total)
T1CA0 014:216 JLINK_IsHalted()  returns FALSE (0001ms, 0902ms total)
T1CA0 014:317 JLINK_IsHalted()  returns FALSE (0001ms, 0902ms total)
T1CA0 014:418 JLINK_IsHalted()  returns FALSE (0001ms, 0902ms total)
T1CA0 014:519 JLINK_ReadMemU32(0xE0001004, 0x0001 Items, ...) -- CPU is running -- CPU_ReadMem(4 bytes @ 0xE0001004) - Data: 0D 9C F4 02  returns 0x01 (0001ms, 0902ms total)
T1AB8 014:521 JLINK_ReadMem (0x20000000, 0x0004 Bytes, ...) -- CPU is running -- CPU_ReadMem(4 bytes @ 0x20000000) - Data: 00 00 80 3D  returns 0x00 (0000ms, 0902ms total)
T1AB8 014:521 JLINK_ReadMem (0x20000004, 0x0004 Bytes, ...) -- CPU is running -- CPU_ReadMem(4 bytes @ 0x20000004) - Data: 00 80 D5 41  returns 0x00 (0001ms, 0903ms total)
T1CA0 014:526 JLINK_IsHalted()  returns FALSE (0001ms, 0904ms total)
T1CA0 014:627 JLINK_IsHalted()  returns FALSE (0001ms, 0904ms total)
T1CA0 014:728 JLINK_IsHalted()  returns FALSE (0002ms, 0905ms total)
T1CA0 014:830 JLINK_IsHalted()  returns FALSE (0000ms, 0903ms total)
T1CA0 014:930 JLINK_IsHalted()  returns FALSE (0002ms, 0905ms total)
T1CA0 015:032 JLINK_ReadMemU32(0xE0001004, 0x0001 Items, ...) -- CPU is running -- CPU_ReadMem(4 bytes @ 0xE0001004) - Data: 40 31 28 05  returns 0x01 (0001ms, 0904ms total)
T1AB8 015:034 JLINK_ReadMem (0x20000000, 0x0004 Bytes, ...) -- CPU is running -- CPU_ReadMem(4 bytes @ 0x20000000) - Data: 00 00 80 3D  returns 0x00 (0000ms, 0904ms total)
T1AB8 015:034 JLINK_ReadMem (0x20000004, 0x0004 Bytes, ...) -- CPU is running -- CPU_ReadMem(4 bytes @ 0x20000004) - Data: 00 80 D5 41  returns 0x00 (0001ms, 0905ms total)
T1CA0 015:044 JLINK_IsHalted()  returns FALSE (0001ms, 0906ms total)
T1CA0 015:145 JLINK_IsHalted()  returns FALSE (0001ms, 0907ms total)
T1CA0 015:246 JLINK_IsHalted()  returns FALSE (0001ms, 0907ms total)
T1CA0 015:347 JLINK_IsHalted()  returns FALSE (0001ms, 0907ms total)
T1CA0 015:448 JLINK_IsHalted()  returns FALSE (0001ms, 0907ms total)
